<Qucs Dataset 0.0.19>
<indep time 102>
  +0.00000000000000000000e+00
  +2.97029702970297015963e-02
  +5.94059405940594031925e-02
  +8.91089108910891047888e-02
  +1.18811881188118806385e-01
  +1.48514851485148507981e-01
  +1.78217821782178209578e-01
  +2.07920792079207911174e-01
  +2.37623762376237612770e-01
  +2.67326732673267342122e-01
  +2.97029702970297015963e-01
  +3.26732673267326689803e-01
  +3.56435643564356419155e-01
  +3.86138613861386148507e-01
  +4.15841584158415822348e-01
  +4.45544554455445496188e-01
  +4.75247524752475225540e-01
  +5.04950495049504954892e-01
  +5.34653465346534684244e-01
  +5.64356435643564302573e-01
  +5.94059405940594031925e-01
  +6.23762376237623761277e-01
  +6.53465346534653379607e-01
  +6.83168316831683108958e-01
  +7.12871287128712838310e-01
  +7.42574257425742567662e-01
  +7.72277227722772297014e-01
  +8.01980198019801915343e-01
  +8.31683168316831644695e-01
  +8.61386138613861374047e-01
  +8.91089108910890992377e-01
  +9.20792079207920721728e-01
  +9.50495049504950451080e-01
  +9.80198019801980180432e-01
  +1.00990099009900990978e+00
  +1.03960396039603963914e+00
  +1.06930693069306936849e+00
  +1.09900990099009887579e+00
  +1.12871287128712860515e+00
  +1.15841584158415833450e+00
  +1.18811881188118806385e+00
  +1.21782178217821779320e+00
  +1.24752475247524752255e+00
  +1.27722772277227725191e+00
  +1.30693069306930675921e+00
  +1.33663366336633648856e+00
  +1.36633663366336621792e+00
  +1.39603960396039594727e+00
  +1.42574257425742567662e+00
  +1.45544554455445540597e+00
  +1.48514851485148513532e+00
  +1.51485148514851486468e+00
  +1.54455445544554459403e+00
  +1.57425742574257410133e+00
  +1.60396039603960383069e+00
  +1.63366336633663356004e+00
  +1.66336633663366328939e+00
  +1.69306930693069301874e+00
  +1.72277227722772274809e+00
  +1.75247524752475247745e+00
  +1.78217821782178198475e+00
  +1.81188118811881171411e+00
  +1.84158415841584144346e+00
  +1.87128712871287117281e+00
  +1.90099009900990090216e+00
  +1.93069306930693063151e+00
  +1.96039603960396036086e+00
  +1.99009900990099009022e+00
  +2.01980198019801981957e+00
  +2.04950495049504954892e+00
  +2.07920792079207927827e+00
  +2.10891089108910900762e+00
  +2.13861386138613873698e+00
  +2.16831683168316802224e+00
  +2.19801980198019775159e+00
  +2.22772277227722748094e+00
  +2.25742574257425721029e+00
  +2.28712871287128693965e+00
  +2.31683168316831666900e+00
  +2.34653465346534639835e+00
  +2.37623762376237612770e+00
  +2.40594059405940585705e+00
  +2.43564356435643558640e+00
  +2.46534653465346531576e+00
  +2.49504950495049504511e+00
  +2.52475247524752477446e+00
  +2.55445544554455450381e+00
  +2.58415841584158423316e+00
  +2.61386138613861351843e+00
  +2.64356435643564324778e+00
  +2.67326732673267297713e+00
  +2.70297029702970270648e+00
  +2.73267326732673243583e+00
  +2.76237623762376216519e+00
  +2.79207920792079189454e+00
  +2.82178217821782162389e+00
  +2.85148514851485135324e+00
  +2.88118811881188108259e+00
  +2.91089108910891081194e+00
  +2.94059405940594054130e+00
  +2.97029702970297027065e+00
  +3.00000000000000000000e+00
</indep>
<dep V2.It time>
  -5.40676320859854905561e-05
  -5.40676324936428307866e-05
  -5.40676325608530723363e-05
  -5.40676325602939831572e-05
  -5.40676325602893210879e-05
  -5.40676325603026838797e-05
  -5.40676325602687280229e-05
  -5.40676325602631985918e-05
  -5.40676325602678877662e-05
  -5.40676325602704288651e-05
  -5.40676325602653127861e-05
  -5.40676325602516653912e-05
  -5.40676325602582722482e-05
  -5.40676325602636526015e-05
  -5.40676325602635238525e-05
  -5.40676325602839678397e-05
  -5.40676325602344672342e-05
  -5.40676325602551280619e-05
  -5.40676325602267558463e-05
  -5.40676325602468339153e-05
  -5.40676325602707676782e-05
  -5.40676325602615790648e-05
  -5.40676325602497544849e-05
  -5.40676325602590040847e-05
  -5.40676325602879251776e-05
  -5.40676325602775574943e-05
  -5.40676325602605355202e-05
  -5.40676325603067902954e-05
  -5.40676325602621482710e-05
  -5.40676325602758905335e-05
  -5.40676325602644996344e-05
  -5.40676325602419956631e-05
  -5.40676325602256919729e-05
  -5.40676325602915098210e-05
  -5.40676325602829242951e-05
  -5.40676325602609285435e-05
  -5.40676325602881487943e-05
  -5.40676325602419007954e-05
  -5.40676325602559818711e-05
  -5.40676325602514892084e-05
  -5.40676325602496325121e-05
  -5.40676325602822060112e-05
  -5.40676325602768934205e-05
  -5.40676325602857093394e-05
  -5.40676325602462511566e-05
  -5.40676325602653060098e-05
  -5.40676325602558666746e-05
  -5.40676325602558734509e-05
  -5.40676325602626226094e-05
  -5.40676325602796445835e-05
  -5.40676325602603593374e-05
  -5.40676325602477487109e-05
  -5.40676325602917605428e-05
  -5.40676325602846590186e-05
  -5.40676325602909473912e-05
  -5.40676325602517941402e-05
  -5.40676325602693988730e-05
  -5.40676325602626293857e-05
  -5.40676325602628665549e-05
  -5.40676325602584890886e-05
  -5.40676325602423344763e-05
  -5.40676325602496934985e-05
  -5.40676325602625548468e-05
  -5.40676325602776659146e-05
  -5.40676325602827752173e-05
  -5.40676325602632392494e-05
  -5.40676325602934546087e-05
  -5.40676325602699477503e-05
  -5.40676325602962870869e-05
  -5.40676325602751248157e-05
  -5.40676325602851740146e-05
  -5.40676325602908254184e-05
  -5.40676325602735323938e-05
  -5.40676325602461562889e-05
  -5.40676325602756398117e-05
  -5.40676325602612470279e-05
  -5.40676325602661530427e-05
  -5.40676325602461224076e-05
  -5.40676325602573642289e-05
  -5.40676325602522007160e-05
  -5.40676325602592683589e-05
  -5.40676325602692701240e-05
  -5.40676325602491310686e-05
  -5.40676325602603796662e-05
  -5.40676325602675963869e-05
  -5.40676325602576691607e-05
  -5.40676325602854518414e-05
  -5.40676325602567272601e-05
  -5.40676325602777065721e-05
  -5.40676325602687076941e-05
  -5.40676325603008407360e-05
  -5.40676325602942880891e-05
  -5.40676325602772525625e-05
  -5.40676325602437439391e-05
  -5.40676325602467661526e-05
  -5.40676325602581028416e-05
  -5.40676325602933461885e-05
  -5.40676325602694530831e-05
  -5.40676325602856076955e-05
  -5.40676325602645131869e-05
  -5.40676325602767036851e-05
  -5.40676325602829514001e-05
</dep>
<dep _net4.Vt time>
  +3.00000000000000000000e+00
  +3.00000000000000000000e+00
  +3.00000000000000000000e+00
  +3.00000000000000000000e+00
  +3.00000000000000000000e+00
  +3.00000000000000000000e+00
  +3.00000000000000000000e+00
  +3.00000000000000000000e+00
  +3.00000000000000000000e+00
  +3.00000000000000000000e+00
  +3.00000000000000000000e+00
  +3.00000000000000000000e+00
  +3.00000000000000000000e+00
  +3.00000000000000000000e+00
  +3.00000000000000000000e+00
  +3.00000000000000000000e+00
  +3.00000000000000000000e+00
  +3.00000000000000000000e+00
  +3.00000000000000000000e+00
  +3.00000000000000000000e+00
  +3.00000000000000000000e+00
  +3.00000000000000000000e+00
  +3.00000000000000000000e+00
  +3.00000000000000000000e+00
  +3.00000000000000000000e+00
  +3.00000000000000000000e+00
  +3.00000000000000000000e+00
  +3.00000000000000000000e+00
  +3.00000000000000000000e+00
  +3.00000000000000000000e+00
  +3.00000000000000000000e+00
  +3.00000000000000000000e+00
  +3.00000000000000000000e+00
  +3.00000000000000000000e+00
  +3.00000000000000000000e+00
  +3.00000000000000000000e+00
  +3.00000000000000000000e+00
  +3.00000000000000000000e+00
  +3.00000000000000000000e+00
  +3.00000000000000000000e+00
  +3.00000000000000000000e+00
  +3.00000000000000000000e+00
  +3.00000000000000000000e+00
  +3.00000000000000000000e+00
  +3.00000000000000000000e+00
  +3.00000000000000000000e+00
  +3.00000000000000000000e+00
  +3.00000000000000000000e+00
  +3.00000000000000000000e+00
  +3.00000000000000000000e+00
  +3.00000000000000000000e+00
  +3.00000000000000000000e+00
  +3.00000000000000000000e+00
  +3.00000000000000000000e+00
  +3.00000000000000000000e+00
  +3.00000000000000000000e+00
  +3.00000000000000000000e+00
  +3.00000000000000000000e+00
  +3.00000000000000000000e+00
  +3.00000000000000000000e+00
  +3.00000000000000000000e+00
  +3.00000000000000000000e+00
  +3.00000000000000000000e+00
  +3.00000000000000000000e+00
  +3.00000000000000000000e+00
  +3.00000000000000000000e+00
  +3.00000000000000000000e+00
  +3.00000000000000000000e+00
  +3.00000000000000000000e+00
  +3.00000000000000000000e+00
  +3.00000000000000000000e+00
  +3.00000000000000000000e+00
  +3.00000000000000000000e+00
  +3.00000000000000000000e+00
  +3.00000000000000000000e+00
  +3.00000000000000000000e+00
  +3.00000000000000000000e+00
  +3.00000000000000000000e+00
  +3.00000000000000000000e+00
  +3.00000000000000000000e+00
  +3.00000000000000000000e+00
  +3.00000000000000000000e+00
  +3.00000000000000000000e+00
  +3.00000000000000000000e+00
  +3.00000000000000000000e+00
  +3.00000000000000000000e+00
  +3.00000000000000000000e+00
  +3.00000000000000000000e+00
  +3.00000000000000000000e+00
  +3.00000000000000000000e+00
  +3.00000000000000000000e+00
  +3.00000000000000000000e+00
  +3.00000000000000000000e+00
  +3.00000000000000000000e+00
  +3.00000000000000000000e+00
  +3.00000000000000000000e+00
  +3.00000000000000000000e+00
  +3.00000000000000000000e+00
  +3.00000000000000000000e+00
  +3.00000000000000000000e+00
  +3.00000000000000000000e+00
  +3.00000000000000000000e+00
</dep>
<dep _net5.Vt time>
  +4.77560604290786949733e-01
  +4.77560611934785772537e-01
  +4.77560611935765155778e-01
  +4.77560611935887668889e-01
  +4.77560611935930912075e-01
  +4.77560611935948509110e-01
  +4.77560611935954670848e-01
  +4.77560611935955003915e-01
  +4.77560611935957779473e-01
  +4.77560611935956058627e-01
  +4.77560611935957723961e-01
  +4.77560611935957946006e-01
  +4.77560611935958556629e-01
  +4.77560611935958723162e-01
  +4.77560611935959389296e-01
  +4.77560611935956613738e-01
  +4.77560611935958223562e-01
  +4.77560611935956502716e-01
  +4.77560611935956669249e-01
  +4.77560611935956891294e-01
  +4.77560611935957335383e-01
  +4.77560611935956058627e-01
  +4.77560611935958945207e-01
  +4.77560611935957335383e-01
  +4.77560611935956558227e-01
  +4.77560611935955725560e-01
  +4.77560611935958279073e-01
  +4.77560611935956336183e-01
  +4.77560611935957668450e-01
  +4.77560611935958501117e-01
  +4.77560611935957779473e-01
  +4.77560611935956724761e-01
  +4.77560611935957113339e-01
  +4.77560611935957168850e-01
  +4.77560611935957779473e-01
  +4.77560611935956724761e-01
  +4.77560611935956780272e-01
  +4.77560611935959056229e-01
  +4.77560611935959389296e-01
  +4.77560611935959722363e-01
  +4.77560611935958667651e-01
  +4.77560611935956946805e-01
  +4.77560611935957446406e-01
  +4.77560611935959722363e-01
  +4.77560611935958556629e-01
  +4.77560611935957335383e-01
  +4.77560611935957279872e-01
  +4.77560611935958334584e-01
  +4.77560611935957335383e-01
  +4.77560611935957723961e-01
  +4.77560611935959000718e-01
  +4.77560611935957168850e-01
  +4.77560611935958390095e-01
  +4.77560611935957557428e-01
  +4.77560611935958778673e-01
  +4.77560611935958778673e-01
  +4.77560611935957446406e-01
  +4.77560611935957779473e-01
  +4.77560611935957279872e-01
  +4.77560611935958390095e-01
  +4.77560611935956280671e-01
  +4.77560611935957113339e-01
  +4.77560611935957224361e-01
  +4.77560611935956447205e-01
  +4.77560611935957279872e-01
  +4.77560611935956447205e-01
  +4.77560611935956114138e-01
  +4.77560611935956391694e-01
  +4.77560611935956613738e-01
  +4.77560611935956169649e-01
  +4.77560611935955947605e-01
  +4.77560611935958334584e-01
  +4.77560611935959278274e-01
  +4.77560611935960110941e-01
  +4.77560611935956835783e-01
  +4.77560611935956169649e-01
  +4.77560611935957834984e-01
  +4.77560611935958612140e-01
  +4.77560611935956946805e-01
  +4.77560611935958834184e-01
  +4.77560611935959389296e-01
  +4.77560611935956391694e-01
  +4.77560611935959111740e-01
  +4.77560611935956669249e-01
  +4.77560611935958001517e-01
  +4.77560611935956780272e-01
  +4.77560611935956447205e-01
  +4.77560611935958667651e-01
  +4.77560611935957834984e-01
  +4.77560611935956447205e-01
  +4.77560611935956946805e-01
  +4.77560611935958778673e-01
  +4.77560611935956946805e-01
  +4.77560611935958556629e-01
  +4.77560611935958723162e-01
  +4.77560611935958501117e-01
  +4.77560611935956447205e-01
  +4.77560611935958390095e-01
  +4.77560611935959111740e-01
  +4.77560611935958168051e-01
  +4.77560611935956114138e-01
  +4.77560611935955947605e-01
</dep>
<dep stage2l.Vt time>
  +1.49869996568613239596e+00
  +1.49869998962118011754e+00
  +1.49869998968568740594e+00
  +1.49869998968575779408e+00
  +1.49869998968577911036e+00
  +1.49869998968578399534e+00
  +1.49869998968578310716e+00
  +1.49869998968577866627e+00
  +1.49869998968577533560e+00
  +1.49869998968576956244e+00
  +1.49869998968576534359e+00
  +1.49869998968576068066e+00
  +1.49869998968575623977e+00
  +1.49869998968575135478e+00
  +1.49869998968574691389e+00
  +1.49869998968574091869e+00
  +1.49869998968573647780e+00
  +1.49869998968573092668e+00
  +1.49869998968572648579e+00
  +1.49869998968572160081e+00
  +1.49869998968571649378e+00
  +1.49869998968571138676e+00
  +1.49869998968570783404e+00
  +1.49869998968570183884e+00
  +1.49869998968569695386e+00
  +1.49869998968569140274e+00
  +1.49869998968568807207e+00
  +1.49869998968568229891e+00
  +1.49869998968567785802e+00
  +1.49869998968567341713e+00
  +1.49869998968566853215e+00
  +1.49869998968566342512e+00
  +1.49869998968565898423e+00
  +1.49869998968565365516e+00
  +1.49869998968564899222e+00
  +1.49869998968564344111e+00
  +1.49869998968563877817e+00
  +1.49869998968563544750e+00
  +1.49869998968563078456e+00
  +1.49869998968562589958e+00
  +1.49869998968562057051e+00
  +1.49869998968561435326e+00
  +1.49869998968560991237e+00
  +1.49869998968560658170e+00
  +1.49869998968560103059e+00
  +1.49869998968559525743e+00
  +1.49869998968559059449e+00
  +1.49869998968558659769e+00
  +1.49869998968558060248e+00
  +1.49869998968557593955e+00
  +1.49869998968557216479e+00
  +1.49869998968556616958e+00
  +1.49869998968556239483e+00
  +1.49869998968555684371e+00
  +1.49869998968555240282e+00
  +1.49869998968554773988e+00
  +1.49869998968554196672e+00
  +1.49869998968553752583e+00
  +1.49869998968553197471e+00
  +1.49869998968552842200e+00
  +1.49869998968552242680e+00
  +1.49869998968551798590e+00
  +1.49869998968551310092e+00
  +1.49869998968550777185e+00
  +1.49869998968550333096e+00
  +1.49869998968549777985e+00
  +1.49869998968549311691e+00
  +1.49869998968548845397e+00
  +1.49869998968548379104e+00
  +1.49869998968547912810e+00
  +1.49869998968547424312e+00
  +1.49869998968547002427e+00
  +1.49869998968546602747e+00
  +1.49869998968546225271e+00
  +1.49869998968545514728e+00
  +1.49869998968545004026e+00
  +1.49869998968544582141e+00
  +1.49869998968544160256e+00
  +1.49869998968543627349e+00
  +1.49869998968543205464e+00
  +1.49869998968542761375e+00
  +1.49869998968542139650e+00
  +1.49869998968541762174e+00
  +1.49869998968541184858e+00
  +1.49869998968540740769e+00
  +1.49869998968540252271e+00
  +1.49869998968539697159e+00
  +1.49869998968539341888e+00
  +1.49869998968538808981e+00
  +1.49869998968538276074e+00
  +1.49869998968537854189e+00
  +1.49869998968537432305e+00
  +1.49869998968536877193e+00
  +1.49869998968536455308e+00
  +1.49869998968535989015e+00
  +1.49869998968535456108e+00
  +1.49869998968534900996e+00
  +1.49869998968534523520e+00
  +1.49869998968534101635e+00
  +1.49869998968533524319e+00
  +1.49869998968532991412e+00
  +1.49869998968532502914e+00
</dep>
<dep _net3.Vt time>
  +2.52084955598275906041e+00
  +2.52084956361590561968e+00
  +2.52084956363673384772e+00
  +2.52084956363675338764e+00
  +2.52084956363676004898e+00
  +2.52084956363676182534e+00
  +2.52084956363676138125e+00
  +2.52084956363676004898e+00
  +2.52084956363675871671e+00
  +2.52084956363675694035e+00
  +2.52084956363675560809e+00
  +2.52084956363675427582e+00
  +2.52084956363675294355e+00
  +2.52084956363675116719e+00
  +2.52084956363674983493e+00
  +2.52084956363674805857e+00
  +2.52084956363674628221e+00
  +2.52084956363674450586e+00
  +2.52084956363674317359e+00
  +2.52084956363674184132e+00
  +2.52084956363674006496e+00
  +2.52084956363673828861e+00
  +2.52084956363673740043e+00
  +2.52084956363673517998e+00
  +2.52084956363673384772e+00
  +2.52084956363673207136e+00
  +2.52084956363673118318e+00
  +2.52084956363672896273e+00
  +2.52084956363672763047e+00
  +2.52084956363672629820e+00
  +2.52084956363672452184e+00
  +2.52084956363672318957e+00
  +2.52084956363672141322e+00
  +2.52084956363672008095e+00
  +2.52084956363671830459e+00
  +2.52084956363671652824e+00
  +2.52084956363671519597e+00
  +2.52084956363671430779e+00
  +2.52084956363671253143e+00
  +2.52084956363671075508e+00
  +2.52084956363670942281e+00
  +2.52084956363670720236e+00
  +2.52084956363670587010e+00
  +2.52084956363670453783e+00
  +2.52084956363670276147e+00
  +2.52084956363670098511e+00
  +2.52084956363669965285e+00
  +2.52084956363669832058e+00
  +2.52084956363669654422e+00
  +2.52084956363669476787e+00
  +2.52084956363669387969e+00
  +2.52084956363669165924e+00
  +2.52084956363669077106e+00
  +2.52084956363668899471e+00
  +2.52084956363668766244e+00
  +2.52084956363668588608e+00
  +2.52084956363668410972e+00
  +2.52084956363668277746e+00
  +2.52084956363668100110e+00
  +2.52084956363667966883e+00
  +2.52084956363667789248e+00
  +2.52084956363667611612e+00
  +2.52084956363667478385e+00
  +2.52084956363667300749e+00
  +2.52084956363667167523e+00
  +2.52084956363666989887e+00
  +2.52084956363666856660e+00
  +2.52084956363666679025e+00
  +2.52084956363666545798e+00
  +2.52084956363666368162e+00
  +2.52084956363666234935e+00
  +2.52084956363666101709e+00
  +2.52084956363665968482e+00
  +2.52084956363665835255e+00
  +2.52084956363665613210e+00
  +2.52084956363665435575e+00
  +2.52084956363665302348e+00
  +2.52084956363665169121e+00
  +2.52084956363665035894e+00
  +2.52084956363664858259e+00
  +2.52084956363664725032e+00
  +2.52084956363664547396e+00
  +2.52084956363664414170e+00
  +2.52084956363664236534e+00
  +2.52084956363664103307e+00
  +2.52084956363663925671e+00
  +2.52084956363663748036e+00
  +2.52084956363663614809e+00
  +2.52084956363663481582e+00
  +2.52084956363663303947e+00
  +2.52084956363663170720e+00
  +2.52084956363663037493e+00
  +2.52084956363662859857e+00
  +2.52084956363662726631e+00
  +2.52084956363662548995e+00
  +2.52084956363662371359e+00
  +2.52084956363662193723e+00
  +2.52084956363662104906e+00
  +2.52084956363661971679e+00
  +2.52084956363661749634e+00
  +2.52084956363661616408e+00
  +2.52084956363661438772e+00
</dep>
<dep _net2.Vt time>
  +5.62594254463857149084e-02
  +5.62594253991558004846e-02
  +5.62594255318053723669e-02
  +5.62594255317501595881e-02
  +5.62594255317530322902e-02
  +5.62594255317502706104e-02
  +5.62594255318000432964e-02
  +5.62594255318061980953e-02
  +5.62594255317856450915e-02
  +5.62594255317848332409e-02
  +5.62594255318220951012e-02
  +5.62594255318131439281e-02
  +5.62594255318154268242e-02
  +5.62594255317861377530e-02
  +5.62594255318005984079e-02
  +5.62594255317579727826e-02
  +5.62594255318250233144e-02
  +5.62594255318173419589e-02
  +5.62594255318322883364e-02
  +5.62594255318305744296e-02
  +5.62594255317671598782e-02
  +5.62594255317972607999e-02
  +5.62594255318123806497e-02
  +5.62594255318112426711e-02
  +5.62594255317534902572e-02
  +5.62594255317792404925e-02
  +5.62594255318095565199e-02
  +5.62594255317673125338e-02
  +5.62594255317766384072e-02
  +5.62594255317973440667e-02
  +5.62594255318468877691e-02
  +5.62594255318533756349e-02
  +5.62594255318423983048e-02
  +5.62594255317783731307e-02
  +5.62594255317796568261e-02
  +5.62594255318067532068e-02
  +5.62594255317502636715e-02
  +5.62594255318195901605e-02
  +5.62594255318023817036e-02
  +5.62594255318358757445e-02
  +5.62594255318330932480e-02
  +5.62594255317656957716e-02
  +5.62594255318187019821e-02
  +5.62594255317683256123e-02
  +5.62594255318254882203e-02
  +5.62594255318205269112e-02
  +5.62594255317793306981e-02
