<Qucs Dataset 0.0.19>
<indep time 103>
  +0.00000000000000000000e+00
  +9.80392156862745084434e-02
  +1.96078431372549016887e-01
  +2.94117647058823539208e-01
  +3.92156862745098033773e-01
  +4.90196078431372528339e-01
  +5.88235294117647078416e-01
  +6.86274509803921572981e-01
  +7.84313725490196067547e-01
  +8.82352941176470562112e-01
  +9.80392156862745056678e-01
  +1.07843137254901955124e+00
  +1.17647058823529415683e+00
  +1.27450980392156854037e+00
  +1.37254901960784314596e+00
  +1.47058823529411752951e+00
  +1.56862745098039213509e+00
  +1.66666666666666674068e+00
  +1.76470588235294112422e+00
  +1.86274509803921572981e+00
  +1.96078431372549011336e+00
  +2.05882352941176449690e+00
  +2.15686274509803910249e+00
  +2.25490196078431370807e+00
  +2.35294117647058831366e+00
  +2.45098039215686291925e+00
  +2.54901960784313708075e+00
  +2.64705882352941168634e+00
  +2.74509803921568629193e+00
  +2.84313725490196089751e+00
  +2.94117647058823505901e+00
  +3.03921568627450966460e+00
  +3.13725490196078427019e+00
  +3.23529411764705887578e+00
  +3.33333333333333348136e+00
  +3.43137254901960764286e+00
  +3.52941176470588224845e+00
  +3.62745098039215685404e+00
  +3.72549019607843145963e+00
  +3.82352941176470562112e+00
  +3.92156862745098022671e+00
  +4.01960784313725483230e+00
  +4.11764705882352899380e+00
  +4.21568627450980404348e+00
  +4.31372549019607820497e+00
  +4.41176470588235325465e+00
  +4.50980392156862741615e+00
  +4.60784313725490157765e+00
  +4.70588235294117662733e+00
  +4.80392156862745078882e+00
  +4.90196078431372583850e+00
  +5.00000000000000000000e+00
  +5.09803921568627416150e+00
  +5.19607843137254921118e+00
  +5.29411764705882337267e+00
  +5.39215686274509753417e+00
  +5.49019607843137258385e+00
  +5.58823529411764674535e+00
  +5.68627450980392179503e+00
  +5.78431372549019595652e+00
  +5.88235294117647011802e+00
  +5.98039215686274516770e+00
  +6.07843137254901932920e+00
  +6.17647058823529437888e+00
  +6.27450980392156854037e+00
  +6.37254901960784270187e+00
  +6.47058823529411775155e+00
  +6.56862745098039191305e+00
  +6.66666666666666696273e+00
  +6.76470588235294112422e+00
  +6.86274509803921528572e+00
  +6.96078431372549033540e+00
  +7.05882352941176449690e+00
  +7.15686274509803954658e+00
  +7.25490196078431370807e+00
  +7.35294117647058786957e+00
  +7.45098039215686291925e+00
  +7.54901960784313708075e+00
  +7.64705882352941124225e+00
  +7.74509803921568629193e+00
  +7.84313725490196045342e+00
  +7.94117647058823550310e+00
  +8.03921568627450966460e+00
  +8.13725490196078382610e+00
  +8.23529411764705798760e+00
  +8.33333333333333392545e+00
  +8.43137254901960808695e+00
  +8.52941176470588224845e+00
  +8.62745098039215640995e+00
  +8.72549019607843057145e+00
  +8.82352941176470650930e+00
  +8.92156862745098067080e+00
  +9.01960784313725483230e+00
  +9.11764705882352899380e+00
  +9.21568627450980315530e+00
  +9.31372549019607909315e+00
  +9.41176470588235325465e+00
  +9.50980392156862741615e+00
  +9.60784313725490157765e+00
  +9.70588235294117573915e+00
  +9.80392156862745167700e+00
  +9.90196078431372583850e+00
  +1.00000000000000000000e+01
</indep>
<dep V2.It time>
  -3.18708732313940402980e-04
  -3.25366617818370954234e-04
  -3.25365650773461688970e-04
  -3.25365484955291838637e-04
  -3.25365412510900966180e-04
  -3.25365441230604773154e-04
  -3.25365442258232625758e-04
  -3.25365477135167895702e-04
  -3.25365501489774985432e-04
  -3.25365517689795531384e-04
  -3.25365596477773571984e-04
  -3.25365627506255276555e-04
  -3.25365644800333934841e-04
  -3.25365720905160368728e-04
  -3.25365745089313800759e-04
  -3.25365786078072303546e-04
  -3.25365818257556207484e-04
  -3.25365799451282882836e-04
  -3.25365859981154416716e-04
  -3.25365847689690617251e-04
  -3.25365893614605041981e-04
  -3.25365905484857706898e-04
  -3.25365913884474700600e-04
  -3.25365919257577000060e-04
  -3.25365921282326291900e-04
  -3.25365911249086753234e-04
  -3.25365914497051855400e-04
  -3.25365913686291000247e-04
  -3.25365904587320887726e-04
  -3.25365898607189133352e-04
  -3.25365892866612336880e-04
  -3.25365886756156662447e-04
  -3.25365880274653828004e-04
  -3.25365873889436874305e-04
  -3.25365867764025823525e-04
  -3.25365862048771002472e-04
  -3.25365857097524612592e-04
  -3.25365852339848642821e-04
  -3.25365849143129494750e-04
  -3.25365849158335809690e-04
  -3.25365846488821406322e-04
  -3.25365832141589670333e-04
  -3.25365837943054447660e-04
  -3.25365826064602286973e-04
  -3.25365810056615684023e-04
  -3.25365835761442351824e-04
  -3.25365823943263917251e-04
  -3.25365807631942320459e-04
  -3.25365835981482863244e-04
  -3.25365829370676614037e-04
  -3.25365839133777315188e-04
  -3.25365839612432245550e-04
  -3.25365798958066575197e-04
  -3.25365833470476920140e-04
  -3.25365793069424679047e-04
  -3.25365835099349412756e-04
  -3.25365809925259386656e-04
  -3.25365812821919349329e-04
  -3.25365816137915264683e-04
  -3.25365817409719053268e-04
  -3.25365807731308419575e-04
  -3.25365815014341211876e-04
  -3.25365804229956596082e-04
  -3.25365840805866919552e-04
  -3.25365814229820814012e-04
  -3.25365809787862294254e-04
  -3.25365814360174766470e-04
  -3.25365815335613896980e-04
  -3.25365815197307646847e-04
  -3.25365815309164026041e-04
  -3.25365815364085154450e-04
  -3.25365817093394233198e-04
  -3.25365817195744327743e-04
  -3.25365804593119329474e-04
  -3.25365840946973284425e-04
  -3.25365815250928383170e-04
  -3.25365805736065960910e-04
  -3.25365812138347606283e-04
  -3.25365802350960939097e-04
  -3.25365843177840793378e-04
  -3.25365814315519135281e-04
  -3.25365829147438519360e-04
  -3.25365849039726694105e-04
  -3.25365846343939090542e-04
  -3.25365829120526453035e-04
  -3.25365845548241923533e-04
  -3.25365826610408200460e-04
  -3.25365831719849661965e-04
  -3.25365815400546765090e-04
  -3.25365830202224931653e-04
  -3.25365809400750944334e-04
  -3.25365823607403237706e-04
  -3.25365823491774539683e-04
  -3.25365804688567176149e-04
  -3.25365828587983259464e-04
  -3.25365851691888441702e-04
  -3.25365844300637527438e-04
  -3.25365847994916893363e-04
  -3.25365828303441283979e-04
  -3.25365831724715019214e-04
  -3.25365832696525975574e-04
  -3.25365813988099349119e-04
  -3.25365811282157162219e-04
</dep>
<dep V5.It time>
  -1.97551005015590773039e-05
  -1.87590384400320593346e-05
  -1.87590342155369735832e-05
  -1.87333463991137541213e-05
  -1.87960943042698418323e-05
  -1.88602490890125851631e-05
  -1.88460951229270341030e-05
  -1.88967326767067839936e-05
  -1.88428555202535881637e-05
  -1.88805107266949329949e-05
  -1.89185030782473587673e-05
  -1.88478246939017858857e-05
  -1.88742763990388723642e-05
  -1.88978447107215792318e-05
  -1.88119561444922182511e-05
  -1.88241523841878399088e-05
  -1.88363486236470648353e-05
  -1.86973404938192840855e-05
  -1.86988719253961144663e-05
  -1.86385231136763217404e-05
  -1.86539402268398723920e-05
  -1.86661364643147396805e-05
  -1.86819277035598185050e-05
  -1.87046079321093799085e-05
  -1.87272881606601779801e-05
  -1.86623814242059490626e-05
  -1.86529548698511745612e-05
  -1.86918316079965676215e-05
  -1.86784003110275884281e-05
  -1.86649690139303074600e-05
  -1.86578771401541339432e-05
  -1.86572596099605035862e-05
  -1.86566420797212418703e-05
  -1.86560245494397538679e-05
  -1.86554070191191769890e-05
  -1.86552208894492827808e-05
  -1.86585460566428111302e-05
  -1.86618712238140320198e-05
  -1.86744038084648945951e-05
  -1.87250413466719539148e-05
  -1.87756788848658232375e-05
  -1.87018488070388389432e-05
  -1.87460794616225775847e-05
  -1.86858343528158053683e-05
  -1.87195438277946269541e-05
  -1.87614818947933484567e-05
  -1.86953973664060724125e-05
  -1.87316846317255459708e-05
  -1.87730162571616914727e-05
  -1.87474313971611833104e-05
  -1.87980689353236277107e-05
  -1.88487064734800005789e-05
  -1.87329881392825120696e-05
  -1.87422006281719680666e-05
  -1.86257036422651125313e-05
  -1.86365796082809355634e-05
  -1.86441820687216846760e-05
  -1.86682211478297119657e-05
  -1.87188586860591194027e-05
  -1.87694962242493532600e-05
  -1.87060591380778170625e-05
  -1.87438829090092631108e-05
  -1.86698393492410510399e-05
  -1.86707953440217137712e-05
  -1.86686042875303352272e-05
  -1.86115932140518570287e-05
  -1.86212266969638709480e-05
  -1.86308601798834810588e-05
  -1.86353483915267316743e-05
  -1.86386735582519964935e-05
  -1.86419987249764007272e-05
  -1.86627346936550838621e-05
  -1.86854149214549770616e-05
  -1.85937062260181594216e-05
  -1.85954054753682106605e-05
  -1.85924711641181351332e-05
  -1.84796507433269208479e-05
  -1.84662194449651518267e-05
  -1.83504552505492491809e-05
  -1.83779611212033835695e-05
  -1.83139020699704980501e-05
  -1.84328797014889871465e-05
  -1.85608608976621031672e-05
  -1.86481091997897729213e-05
  -1.85774682927753851563e-05
  -1.86691098864729240943e-05
  -1.87536671936949943577e-05
  -1.86578067779386461513e-05
  -1.86519513685022287871e-05
  -1.85377912340308421198e-05
  -1.84819566461781656494e-05
  -1.85745562742305280574e-05
  -1.86677131949596792368e-05
  -1.85827826065774087986e-05
  -1.87359302835629036859e-05
  -1.88963952484872190222e-05
  -1.89545949330470322525e-05
  -1.90832409090569211951e-05
  -1.89947575477765615763e-05
  -1.89628561686801441462e-05
  -1.89622386381232925089e-05
  -1.87877055467026368317e-05
  -1.85820677403347031737e-05
</dep>
<dep stage3l.Vt time>
  +2.97529262539769234763e+00
  +2.97537161709586106539e+00
  +2.97537162775470909182e+00
  +2.97537166296971289370e+00
  +2.97537163064053311601e+00
  +2.97537176822398352627e+00
  +2.97537179642473681440e+00
  +2.97537168345752434107e+00
  +2.97537161482688317093e+00
  +2.97537161766213431591e+00
  +2.97537167228429444421e+00
  +2.97537169682060742559e+00
  +2.97537169624196806694e+00
  +2.97537176836934635915e+00
  +2.97537173471216975784e+00
  +2.97537172123035942306e+00
  +2.97537173429013757087e+00
  +2.97537171849708936833e+00
  +2.97537173196476301129e+00
  +2.97537172175718955813e+00
  +2.97537171998246652294e+00
  +2.97537179284454333938e+00
  +2.97537177306957234535e+00
  +2.97537174225026479490e+00
  +2.97537176758475085947e+00
  +2.97537169881433483098e+00
  +2.97537168872981361289e+00
  +2.97537169516115174162e+00
  +2.97537175263335651465e+00
  +2.97537163026028617097e+00
  +2.97537167885467823680e+00
  +2.97537159067382805944e+00
  +2.97537166740255853981e+00
  +2.97537175840076617561e+00
  +2.97537178513743061359e+00
  +2.97537173479674210697e+00
  +2.97537178483295239317e+00
  +2.97537177720688150728e+00
  +2.97537169098931508771e+00
  +2.97537168246209615674e+00
  +2.97537161280713391420e+00
  +2.97537164710751866892e+00
  +2.97537168148751129948e+00
  +2.97537168320984957148e+00
  +2.97537165808447934268e+00
  +2.97537178411017722013e+00
  +2.97537171628190311168e+00
  +2.97537168832325749079e+00
  +2.97537165166065964428e+00
  +2.97537178803167323693e+00
  +2.97537169007539814558e+00
  +2.97537166453681001244e+00
  +2.97537174077379118486e+00
  +2.97537169949946944669e+00
  +2.97537166713662903916e+00
  +2.97537168481679437093e+00
  +2.97537178637324339903e+00
  +2.97537178789171186111e+00
  +2.97537172612996680954e+00
  +2.97537178896286924612e+00
  +2.97537176629882127443e+00
  +2.97537167101266497582e+00
  +2.97537173372480401312e+00
  +2.97537176138331771469e+00
  +2.97537182892429274972e+00
  +2.97537172546805628315e+00
  +2.97537166573976286088e+00
  +2.97537167245954448092e+00
  +2.97537169606508156150e+00
  +2.97537171182914939038e+00
  +2.97537171067191863472e+00
  +2.97537168012363695269e+00
  +2.97537167879235830981e+00
  +2.97537166238023642606e+00
  +2.97537164667268116958e+00
  +2.97537164322758540536e+00
  +2.97537170490924429700e+00
  +2.97537174777905422118e+00
  +2.97537165952552173920e+00
  +2.97537174282757366228e+00
  +2.97537177325180035581e+00
  +2.97537180511867571653e+00
  +2.97537178685776959597e+00
  +2.97537169528681255670e+00
  +2.97537172161388596692e+00
  +2.97537168360616632867e+00
  +2.97537166666530206172e+00
  +2.97537165989223773011e+00
  +2.97537159007637974639e+00
  +2.97537153498283712949e+00
  +2.97537162308290570323e+00
  +2.97537170004690443292e+00
  +2.97537170858511279548e+00
  +2.97537161803829697249e+00
  +2.97537168112962957522e+00
  +2.97537173682079458814e+00
  +2.97537165884999588172e+00
  +2.97537158836050252830e+00
  +2.97537172455875476018e+00
  +2.97537168399085194537e+00
  +2.97537167661457147005e+00
  +2.97537165717177387592e+00
  +2.97537168979818611447e+00
</dep>
<dep _net5.Vt time>
  +4.76377504770703397163e-01
  +4.76377811806941386941e-01
  +4.76377811836911635446e-01
  +4.76377811845375975786e-01
  +4.76377811842865150904e-01
  +4.76377811847962351344e-01
  +4.76377811849677479383e-01
  +4.76377811850293209073e-01
  +4.76377811848429588704e-01
  +4.76377811847250698385e-01
  +4.76377811853298083200e-01
  +4.76377811852025934147e-01
  +4.76377811850892618484e-01
  +4.76377811856629418408e-01
  +4.76377811858484767615e-01
  +4.76377811857642052829e-01
  +4.76377811858263833233e-01
  +4.76377811856561972359e-01
  +4.76377811859793331983e-01
  +4.76377811856945110325e-01
  +4.76377811860159261492e-01
  +4.76377811859680422302e-01
  +4.76377811859889754853e-01
  +4.76377811860040800696e-01
  +4.76377811859761357560e-01
  +4.76377811859627131597e-01
  +4.76377811860670241639e-01
  +4.76377811859468813793e-01
  +4.76377811859378552661e-01
  +4.76377811858913868814e-01
  +4.76377811858949784529e-01
  +4.76377811858751887275e-01
  +4.76377811858409938583e-01
  +4.76377811858458843908e-01
  +4.76377811858071653628e-01
  +4.76377811858136601675e-01
  +4.76377811858037125692e-01
  +4.76377811858001598555e-01
  +4.76377811858220701069e-01
  +4.76377811857990440814e-01
  +4.76377811858058108907e-01
  +4.76377811859603594868e-01
  +4.76377811857756572333e-01
  +4.76377811855505817196e-01
  +4.76377811853875232639e-01
  +4.76377811858048672011e-01
  +4.76377811855409005748e-01
  +4.76377811853526733632e-01
  +4.76377811858054667216e-01
  +4.76377811856423694081e-01
  +4.76377811857224386927e-01
  +4.76377811857500943482e-01
  +4.76377811856163513315e-01
  +4.76377811857501387571e-01
  +4.76377811852502108803e-01
  +4.76377811857635946602e-01
  +4.76377811854555521798e-01
  +4.76377811854465316177e-01
  +4.76377811854619637177e-01
  +4.76377811854492183574e-01
  +4.76377811856252830758e-01
  +4.76377811854603760988e-01
  +4.76377811851967369883e-01
  +4.76377811857198074641e-01
  +4.76377811854519606083e-01
  +4.76377811855421828824e-01
  +4.76377811854161559157e-01
  +4.76377811854262478430e-01
  +4.76377811854284904935e-01
  +4.76377811854312605000e-01
  +4.76377811854342858577e-01
  +4.76377811854490740284e-01
  +4.76377811854460875285e-01
  +4.76377811852508492585e-01
  +4.76377811856670052570e-01
  +4.76377811855158372900e-01
  +4.76377811856155519710e-01
  +4.76377811854546695525e-01
  +4.76377811852757016009e-01
  +4.76377811856898536469e-01
  +4.76377811850663857030e-01
  +4.76377811855235033800e-01
  +4.76377811857482569291e-01
  +4.76377811857616351165e-01
  +4.76377811854573951500e-01
  +4.76377811857192079437e-01
  +4.76377811855143440400e-01
  +4.76377811858431532421e-01
  +4.76377811855120680828e-01
  +4.76377811857780608662e-01
  +4.76377811854811816783e-01
  +4.76377811854885424570e-01
  +4.76377811855145716358e-01
  +4.76377811851858734560e-01
  +4.76377811856417476832e-01
  +4.76377811856748600849e-01
  +4.76377811858764488306e-01
  +4.76377811855883515069e-01
  +4.76377811856057542528e-01
  +4.76377811856680266622e-01
  +4.76377811856043886785e-01
  +4.76377811855332955471e-01
  +4.76377811855768440452e-01
</dep>
<dep stage2h.Vt time>
  +2.00654285296728573940e+00
  +2.01080099821818603090e+00
  +2.01079005161458646000e+00
  +2.01078780346238694676e+00
  +2.01078727429604864341e+00
  +2.01078729411722090248e+00
  +2.01078731190355597391e+00
  +2.01078771780243314993e+00
  +2.01078799202320901429e+00
  +2.01078849967517925279e+00
  +2.01078909595929555820e+00
  +2.01078944732204645263e+00
  +2.01078998782815920876e+00
  +2.01079053298049759135e+00
  +2.01079082307193068857e+00
  +2.01079130060237032396e+00
  +2.01079167515465018212e+00
  +2.01079176116771440874e+00
  +2.01079217466320114838e+00
  +2.01079231598059271491e+00
  +2.01079257416358814226e+00
  +2.01079271239095414003e+00
  +2.01079281054147296359e+00
  +2.01079287316517785200e+00
  +2.01079289681628337050e+00
  +2.01079277912663512140e+00
  +2.01079282227356115342e+00
  +2.01079281218588468150e+00
  +2.01079270641262830566e+00
  +2.01079263696633336878e+00
  +2.01079257084099571884e+00
  +2.01079249986059016564e+00
  +2.01079242452802020580e+00
  +2.01079235030597169853e+00
  +2.01079227909816182773e+00
  +2.01079221269371410941e+00
  +2.01079215513548703598e+00
  +2.01079209981984652345e+00
  +2.01079206348472050436e+00
  +2.01079206372923469104e+00
  +2.01079203265402517431e+00
  +2.01079187607961884510e+00
  +2.01079194443842457218e+00
  +2.01079179706919131121e+00
  +2.01079187203814724327e+00
  +2.01079190927375650588e+00
  +2.01079176248836333230e+00
  +2.01079185358959344754e+00
  +2.01079190190737566724e+00
  +2.01079181923781025176e+00
  +2.01079193247571019754e+00
  +2.01079193784564047576e+00
  +2.01079174373555824573e+00
  +2.01079187873773390649e+00
  +2.01079168725016854680e+00
  +2.01079188754672966155e+00
  +2.01079188201117320389e+00
  +2.01079191693476655445e+00
  +2.01079195548112910075e+00
  +2.01079197015627642031e+00
  +2.01079186630270623226e+00
  +2.01079195167009139311e+00
  +2.01079181622144265162e+00
  +2.01079195372740793246e+00
  +2.01079193107327958145e+00
  +2.01079188510594075723e+00
  +2.01079193867634220538e+00
  +2.01079195000553623274e+00
  +2.01079194820586160120e+00
  +2.01079194939627559080e+00
  +2.01079194992631204997e+00
  +2.01079197010255095179e+00
  +2.01079197116700703063e+00
  +2.01079181418225028111e+00
  +2.01079196061869458489e+00
  +2.01079193669585976068e+00
  +2.01079183454346299698e+00
  +2.01079190966845144928e+00
  +2.01079178668366509442e+00
  +2.01079198863757557803e+00
  +2.01079188481847115355e+00
  +2.01079205435889774023e+00
  +2.01079210388339868487e+00
  +2.01079207244287516687e+00
  +2.01079185789511694082e+00
  +2.01079204778239351015e+00
  +2.01079203823018026753e+00
  +2.01079187264902392585e+00
  +2.01079191660333611580e+00
  +2.01079184639264907375e+00
  +2.01079185287914574687e+00
  +2.01079201891225789467e+00
  +2.01079201681094366094e+00
  +2.01079178242173028934e+00
  +2.01079205850516951060e+00
  +2.01079212359781100972e+00
  +2.01079204894851093499e+00
  +2.01079208746370996508e+00
  +2.01079185819088834819e+00
  +2.01079190083526171406e+00
  +2.01079191222776021419e+00
  +2.01079169180496553082e+00
  +2.01079166027295919150e+00
</dep>
<dep stage3h.Vt time>
  +2.97539599426463308163e+00
  +2.97537160019726742988e+00
  +2.97537161937028971082e+00
  +2.97537164985134161554e+00
  +2.97537164858863389938e+00
  +2.97537173835923685061e+00
  +2.97537177177746459122e+00
  +2.97537170166809383787e+00
  +2.97537169862744299564e+00
  +2.97537173224372519797e+00
  +2.97537173836813506611e+00
  +2.97537175792887742531e+00
  +2.97537169599338202630e+00
  +2.97537169915647226048e+00
  +2.97537167015815828819e+00
  +2.97537173582381386794e+00
  +2.97537168382035943637e+00
  +2.97537167239509869887e+00
  +2.97537170193298372567e+00
  +2.97537165235820078024e+00
  +2.97537174121222403045e+00
  +2.97537175241269702397e+00
  +2.97537172461087706665e+00
  +2.97537163991991215894e+00
  +2.97537172000297234220e+00
  +2.97537170302905584762e+00
  +2.97537161708251840508e+00
  +2.97537168656379824583e+00
  +2.97537171055084836979e+00
  +2.97537167766608590114e+00
  +2.97537168801805096408e+00
  +2.97537167696070881107e+00
  +2.97537172384941062120e+00
  +2.97537171001031985895e+00
  +2.97537168962013431894e+00
  +2.97537160845056192215e+00
  +2.97537169823889602327e+00
  +2.97537168683987340856e+00
  +2.97537177210582326481e+00
  +2.97537168340214552842e+00
  +2.97537168887028791175e+00
