<Qucs Dataset 0.0.19>
<indep time 142>
0.000000000000e+00
2.912620000000e-04
3.220458184680e-04
3.836134554040e-04
5.067487292760e-04
7.530192770200e-04
1.245560372508e-03
2.230642563484e-03
3.710947325165e-03
6.338599927694e-03
9.574116083112e-03
1.446416755344e-02
2.048464290213e-02
2.883103953551e-02
3.916298844949e-02
5.314459306963e-02
7.108398036897e-02
9.622799613737e-02
1.253541961374e-01
1.544803961374e-01
1.656122125016e-01
1.700738068349e-01
1.716944779967e-01
1.722161047142e-01
1.726059015906e-01
1.730130668899e-01
1.736246014743e-01
1.744261518986e-01
1.757266724655e-01
1.783277135993e-01
1.835297958668e-01
1.939339604019e-01
2.033036222449e-01
2.124267973782e-01
2.266138850964e-01
2.549880605329e-01
2.841142605329e-01
3.132404605329e-01
3.423666605329e-01
3.714928605329e-01
4.006190605329e-01
4.297452605329e-01
4.588714605329e-01
4.834641303675e-01
4.996308869887e-01
5.156323729476e-01
5.325589879370e-01
5.487598943966e-01
5.778860943966e-01
6.070122943966e-01
6.361384943966e-01
6.652646943966e-01
6.943908943966e-01
7.235170943966e-01
7.526432943966e-01
7.817694943966e-01
8.108956943966e-01
8.400218943966e-01
8.691480943966e-01
8.982742943966e-01
9.274004943966e-01
9.565266943966e-01
9.676771272723e-01
9.718047086057e-01
9.731108954435e-01
9.740653632409e-01
9.750517374872e-01
9.770244859799e-01
9.809699829651e-01
9.888609769356e-01
1.004642964877e+00
1.024857624096e+00
1.043703622400e+00
1.072829822400e+00
1.101956022400e+00
1.131082222400e+00
1.160208422400e+00
1.189334622400e+00
1.218460822400e+00
1.247587022400e+00
1.276713222400e+00
1.305839422400e+00
1.334965622400e+00
1.364091822400e+00
1.393218022400e+00
1.422344222400e+00
1.451470422400e+00
1.480596622400e+00
1.509722822400e+00
1.538849022400e+00
1.555511460222e+00
1.571765587955e+00
1.591557797137e+00
1.620683997137e+00
1.649810197137e+00
1.678936397137e+00
1.708062597137e+00
1.737188797137e+00
1.766314997137e+00
1.795441197137e+00
1.824567397137e+00
1.853693597137e+00
1.882819797137e+00
1.911945997137e+00
1.941072197137e+00
1.970198397137e+00
1.999324597137e+00
2.028450797137e+00
2.057576997137e+00
2.086703197137e+00
2.115829397137e+00
2.144955597137e+00
2.174081797137e+00
2.203207997137e+00
2.232334197137e+00
2.261460397137e+00
2.290586597137e+00
2.319712797137e+00
2.348838997137e+00
2.377965197137e+00
2.407091397137e+00
2.436217597137e+00
2.465343797137e+00
2.494469997137e+00
2.523596197137e+00
2.552722397137e+00
2.581848597137e+00
2.610974797137e+00
2.640100997137e+00
2.669227197137e+00
2.698353397137e+00
2.727479597137e+00
2.756605797137e+00
2.785731997137e+00
2.814858197137e+00
2.843984397137e+00
2.873110597137e+00
2.902236797137e+00
2.931362997137e+00
2.960489197137e+00
2.989615397137e+00
3.000000000000e+00
</indep>
<dep tran.v(sensor) time>
1.200000000000e+00
1.200050326452e+00
1.200055645511e+00
1.200066283626e+00
1.200087559847e+00
1.200130112235e+00
1.200215216677e+00
1.200385423317e+00
1.200641187022e+00
1.201095138532e+00
1.201653968344e+00
1.202498124912e+00
1.203536357307e+00
1.204972909132e+00
1.206744994664e+00
1.209128104530e+00
1.212151985073e+00
1.216304628982e+00
1.220951151309e+00
1.225376013635e+00
1.226999098719e+00
1.227638156506e+00
1.227868621390e+00
1.227942606837e+00
1.227997832900e+00
1.228055463720e+00
1.228141913571e+00
1.228255028683e+00
1.228438082592e+00
1.228802410343e+00
1.229523846998e+00
1.230937071247e+00
1.232174767872e+00
1.233346830477e+00
1.235102110596e+00
1.238353311590e+00
1.241308142285e+00
1.243852150221e+00
1.245967466093e+00
1.247641959167e+00
1.248869221155e+00
1.249648448228e+00
1.249984227884e+00
1.249929465917e+00
1.249728947287e+00
1.249405280991e+00
1.248930925141e+00
1.248353659892e+00
1.247025922927e+00
1.245348005523e+00
1.243348526389e+00
1.241058187603e+00
1.238509207656e+00
1.235734766999e+00
1.232768476328e+00
1.229643876581e+00
1.226393978119e+00
1.223050845066e+00
1.219645229228e+00
1.216206256496e+00
1.212761167186e+00
1.209335110428e+00
1.208033436073e+00
1.207553398276e+00
1.207401708558e+00
1.207290933316e+00
1.207176516865e+00
1.206947875665e+00
1.206491381933e+00
1.205581721350e+00
1.203777042883e+00
1.201497924068e+00
1.199410531739e+00
1.196265258273e+00
1.193229676855e+00
1.190314857041e+00
1.187529646727e+00
1.184880791990e+00
1.182373077310e+00
1.180009481448e+00
1.177791344541e+00
1.175718542298e+00
1.173789663582e+00
1.172002188046e+00
1.170352660992e+00
1.168836862985e+00
1.167449972261e+00
1.166186718318e+00
1.165041525501e+00
1.164008645740e+00
1.163466026059e+00
1.162969257814e+00
1.162406320902e+00
1.161658220129e+00
1.161000961584e+00
1.160429456226e+00
1.159938985778e+00
1.159525258451e+00
1.159184454667e+00
1.158913263320e+00
1.158708909073e+00
1.158569171238e+00
1.158492394673e+00
1.158477493147e+00
1.158523945530e+00
1.158631785127e+00
1.158801582434e+00
1.159034421500e+00
1.159331870103e+00
1.159695943840e+00
1.160129064285e+00
1.160634011307e+00
1.161213869670e+00
1.161871970089e+00
1.162611824900e+00
1.163437058631e+00
1.164351333790e+00
1.165358272294e+00
1.166461373079e+00
1.167663926538e+00
1.168968926556e+00
1.170378981055e+00
1.171896222093e+00
1.173522216665e+00
1.175257879506e+00
1.177103389291e+00
1.179058109694e+00
1.181120516859e+00
1.183288134855e+00
1.185557480700e+00
1.187924020474e+00
1.190382138006e+00
1.192925117476e+00
1.195545141110e+00
1.198233302959e+00
1.200979639502e+00
1.203773177530e+00
1.206601999458e+00
1.209453325883e+00
1.212313614844e+00
1.215168676863e+00
1.216182570660e+00
</dep>
<dep tran.v(stage1) time>
1.200667335789e+00
1.200729358439e+00
1.200736038174e+00
1.200749611783e+00
1.200777810896e+00
1.200836791746e+00
1.200958851086e+00
1.201205002804e+00
1.201570944460e+00
1.202208242469e+00
1.202973120975e+00
1.204091689713e+00
1.205414648862e+00
1.207166292480e+00
1.209227853576e+00
1.211874717358e+00
1.215092776201e+00
1.219357257042e+00
1.224005284875e+00
1.228359589786e+00
1.229943123170e+00
1.230564896456e+00
1.230788929125e+00
1.230860813546e+00
1.230914467215e+00
1.230970449968e+00
1.231054413953e+00
1.231164251134e+00
1.231341940086e+00
1.231695367554e+00
1.232394344523e+00
1.233760161596e+00
1.234952414732e+00
1.236077896351e+00
1.237756590195e+00
1.240841248414e+00
1.243607878096e+00
1.245949466156e+00
1.247851316154e+00
1.249304256297e+00
1.250304894866e+00
1.250855291547e+00
1.250962903674e+00
1.250718017350e+00
1.250394651489e+00
1.249951431621e+00
1.249353262728e+00
1.248660427310e+00
1.247132863780e+00
1.245267499827e+00
1.243094449179e+00
1.240645542610e+00
1.237954008524e+00
1.235053621674e+00
1.231978446060e+00
1.228762083926e+00
1.225437483597e+00
1.222036302225e+00
1.218588796471e+00
1.215123310457e+00
1.211666258683e+00
1.208241740496e+00
1.206944270140e+00
1.206466230258e+00
1.206315220039e+00
1.206204955879e+00
1.206091080196e+00
1.205863558452e+00
1.205409454929e+00
1.204505167464e+00
1.202713522103e+00
1.200455453917e+00
1.198391917941e+00
1.195290430213e+00
1.192306432244e+00
1.189449697881e+00
1.186727838770e+00
1.184146498064e+00
1.181709382393e+00
1.179418519195e+00
1.177274333836e+00
1.175275918853e+00
1.173421126716e+00
1.171706832496e+00
1.170129027478e+00
1.168683064478e+00
1.167363742716e+00
1.166165529048e+00
1.165082628084e+00
1.164109175750e+00
1.163599161636e+00
1.163133296441e+00
1.162606789520e+00
1.161909952605e+00
1.161301089690e+00
1.160775267528e+00
1.160327950571e+00
1.159955047044e+00
1.159652968954e+00
1.159418650256e+00
1.159249584201e+00
1.159143824241e+00
1.159100004000e+00
1.159117323882e+00
1.159195555806e+00
1.159335016994e+00
1.159536560772e+00
1.159801538446e+00
1.160131776994e+00
1.160529529584e+00
1.160997440697e+00
1.161538485673e+00
1.162155923767e+00
1.162853227178e+00
1.163634022740e+00
1.164502011251e+00
1.165460898984e+00
1.166514308755e+00
1.167665703178e+00
1.168918289770e+00
1.170274938824e+00
1.171738085866e+00
1.173309648061e+00
1.174990928407e+00
1.176782535626e+00
1.178684295433e+00
1.180695179731e+00
1.182813231002e+00
1.185035507118e+00
1.187358025209e+00
1.189775728416e+00
1.192282455302e+00
1.194870934273e+00
1.197532783665e+00
1.200258538282e+00
1.203037683651e+00
1.205858717191e+00
1.208709217899e+00
1.211575942131e+00
1.214444927279e+00
1.217301619312e+00
1.218314182560e+00
</dep>
<dep tran.v(stage2h) time>
1.500049890230e+00
1.500020667252e+00
1.500017245985e+00
1.500009728077e+00
1.499990542845e+00
1.499934933299e+00
1.499752817995e+00
1.499106112708e+00
1.497452471303e+00
1.492656756528e+00
1.483813986329e+00
1.465276856055e+00
1.435594196632e+00
1.385457252290e+00
1.314169212795e+00
1.210013670727e+00
1.074305026865e+00
8.942046435790e-01
7.098687455617e-01
5.546144985014e-01
5.027610489591e-01
4.830183824065e-01
4.759818093519e-01
4.737321254227e-01
4.720558292872e-01
4.703092690293e-01
4.676946012313e-01
4.642831656086e-01
4.587864424286e-01
4.479397976667e-01
4.268702209302e-01
3.874285258681e-01
3.550974724657e-01
3.265138188287e-01
2.875750585583e-01
2.294938693426e-01
1.974333848761e-01
1.898458673818e-01
2.001632217777e-01
2.264785977163e-01
2.713370326885e-01
3.356991011346e-01
4.177644163267e-01
4.998308977563e-01
5.595888312511e-01
6.219960408592e-01
6.907792180000e-01
7.590856034331e-01
8.872110100014e-01
1.020955231093e+00
1.158555741912e+00
1.298215361608e+00
1.438180341961e+00
1.576792004489e+00
1.712508543663e+00
1.843926717267e+00
1.969791149478e+00
2.089004844865e+00
2.200632172042e+00
2.303902238743e+00
2.398223720946e+00
2.483529280987e+00
2.513980911098e+00
2.524988971289e+00
2.528442455257e+00
2.530956428935e+00
2.533545711219e+00
2.538696708483e+00
2.548881398654e+00
2.568727328178e+00
2.606050501102e+00
2.649017191363e+00
2.684243859368e+00
2.729912487955e+00
2.764996528214e+00
2.789317829872e+00
2.803427472178e+00
2.809284958295e+00
2.809147330059e+00
2.804210941715e+00
2.794539341308e+00
2.779609087402e+00
2.758866217745e+00
2.732207366684e+00
2.700156805901e+00
2.663632105990e+00
2.623572499307e+00
2.580672938237e+00
2.535160595325e+00
2.487327467064e+00
2.459386721851e+00
2.432201357674e+00
2.399318294603e+00
2.351287201630e+00
2.303593906568e+00
2.256259806479e+00
2.209405437958e+00
2.163174804839e+00
2.117698800001e+00
2.073079641226e+00
2.029387171132e+00
1.986658201794e+00
1.944898524776e+00
1.904084949280e+00
1.864168214453e+00
1.825075654608e+00
1.786714262244e+00
1.748973569467e+00
1.711728729043e+00
1.674843487006e+00
1.638173249648e+00
1.601568091095e+00
1.564875792069e+00
1.527944846571e+00
1.490627456328e+00
1.452782500451e+00
1.414278454358e+00
1.374996272380e+00
1.334832175550e+00
1.293700372160e+00
1.251535628892e+00
1.208295724610e+00
1.163963687370e+00
1.118549847292e+00
1.072093593641e+00
1.024664869343e+00
9.763652843374e-01
9.273288835626e-01
8.777224496493e-01
8.277453816454e-01
7.776290284163e-01
7.276354805744e-01
6.780553853793e-01
6.292027446944e-01
5.813943830823e-01
5.348596927701e-01
4.895597698555e-01
4.457047247758e-01
4.045368585973e-01
3.672492573680e-01
3.340659993970e-01
3.232260299368e-01
</dep>
<dep tran.v(stage2l) time>
1.499380438257e+00
1.499380437931e+00
1.499380437891e+00
1.499380437800e+00
1.499380437537e+00
1.499380436561e+00
1.499380431929e+00
1.499380406556e+00
1.499380314535e+00
1.499379963133e+00
1.499379196880e+00
1.499377420018e+00
1.499374402136e+00
1.499369122444e+00
1.499361446930e+00
1.499350073448e+00
1.499335119408e+00
1.499315163200e+00
1.499294667751e+00
1.499271692247e+00
1.499242752347e+00
1.499220811302e+00
1.499211700705e+00
1.499208738318e+00
1.499206526401e+00
1.499204222332e+00
1.499200783971e+00
1.499196339096e+00
1.499189353633e+00
1.499176627681e+00
1.499157590010e+00
1.499140760496e+00
1.499137548810e+00
1.499136387716e+00
1.499136106303e+00
1.499136214323e+00
1.499136919184e+00
1.499137227187e+00
1.499136833016e+00
1.499136266776e+00
1.499136052178e+00
1.499136443595e+00
1.499146732480e+00
1.499221570516e+00
1.499270422772e+00
1.499281822801e+00
1.499290818923e+00
1.499297781647e+00
1.499312231038e+00
1.499326616099e+00
1.499341974374e+00
1.499357156616e+00
1.499372706310e+00
1.499387869131e+00
1.499402916833e+00
1.499417351241e+00
1.499431298597e+00
1.499444431344e+00
1.499456805195e+00
1.499468237072e+00
1.499479809922e+00
1.499513242834e+00
1.499548670000e+00
1.499564462128e+00
1.499569396650e+00
1.499572956058e+00
1.499576575678e+00
1.499583585428e+00
1.499596398264e+00
1.499616290657e+00
1.499638112800e+00
1.499651498854e+00
1.499660029870e+00
1.499670312878e+00
1.499678001771e+00
1.499683098434e+00
1.499685876589e+00
1.499686966850e+00
1.499686986205e+00
1.499686147145e+00
1.499684377444e+00
1.499681441705e+00
1.499677138073e+00
1.499671408407e+00
1.499664350336e+00
1.499655964676e+00
1.499645291182e+00
1.499626615245e+00
1.499581546521e+00
1.499518973611e+00
1.499497929770e+00
1.499487739711e+00
1.499480951669e+00
1.499474694706e+00
1.499469227346e+00
1.499464029853e+00
1.499458832587e+00
1.499453763337e+00
1.499448732539e+00
1.499443830087e+00
1.499439002264e+00
1.499434301479e+00
1.499429690837e+00
1.499425197666e+00
1.499420793274e+00
1.499416488430e+00
1.499412258163e+00
1.499408102393e+00
1.499403997753e+00
1.499399937292e+00
1.499395898516e+00
1.499391870533e+00
1.499387831823e+00
1.499383769839e+00
1.499379664621e+00
1.499375503859e+00
1.499371270011e+00
1.499366952640e+00
1.499362537620e+00
1.499358017824e+00
1.499353383574e+00
1.499348632316e+00
1.499343759798e+00
1.499338769112e+00
1.499333662268e+00
1.499328448831e+00
1.499323137698e+00
1.499317745435e+00
1.499312288125e+00
1.499306789407e+00
1.499301271817e+00
1.499295761205e+00
1.499290255104e+00
1.499284580749e+00
1.499277505000e+00
1.499262595342e+00
1.499222740587e+00
1.499169260968e+00
1.499143598236e+00
1.499138310076e+00
1.499136228686e+00
1.499136461673e+00
</dep>
<dep tran.v(stage3h) time>
2.942746710307e+00
2.942746710317e+00
2.942746710319e+00
2.942746710321e+00
2.942746710328e+00
2.942746710347e+00
2.942746710410e+00
2.942746710633e+00
2.942746711203e+00
2.942746712857e+00
2.942746715907e+00
2.942746722300e+00
2.942746732537e+00
2.942746749829e+00
2.942746774415e+00
2.942746810337e+00
2.942746857142e+00
2.942746919256e+00
2.942746982831e+00
2.942747036376e+00
2.942747054257e+00
2.942747061063e+00
2.942747063489e+00
2.942747064265e+00
2.942747064843e+00
2.942747065445e+00
2.942747066346e+00
2.942747067522e+00
2.942747069418e+00
2.942747073157e+00
2.942747080422e+00
2.942747094023e+00
2.942747105174e+00
2.942747115032e+00
2.942747128462e+00
2.942747148494e+00
2.942747159552e+00
2.942747162169e+00
2.942747158610e+00
2.942747149534e+00
2.942747134063e+00
2.942747111865e+00
2.942747083562e+00
2.942747055266e+00
2.942747034661e+00
2.942747013138e+00
2.942746989416e+00
2.942746965858e+00
2.942746921669e+00
2.942746875542e+00
2.942746828085e+00
2.942746779918e+00
2.942746731646e+00
2.942746683840e+00
2.942746637033e+00
2.942746591707e+00
2.942746548270e+00
2.942746504411e+00
2.942746264048e+00
2.942735492086e+00
2.942297665422e+00
2.930649112127e+00
2.891892355799e+00
1.281505803013e-01
1.069645013158e-01
1.018989769335e-01
9.406187692522e-02
8.696313918916e-02
7.541526505112e-02
6.589364451531e-02
5.899714961197e-02
5.781273454673e-02
5.714616034013e-02
5.747378841592e-02
5.705556126126e-02
5.745896464325e-02
5.705232351652e-02
5.745805753865e-02
5.705214264236e-02
5.745821658266e-02
5.705273170412e-02
5.745969683938e-02
5.705671434661e-02
5.747236643852e-02
5.710267168130e-02
5.767082529610e-02
5.804004615287e-02
6.274442757219e-02
9.108204011744e-02
2.928679083725e+00
2.937802824935e+00
2.941795004188e+00
2.942479987882e+00
2.942853897622e+00
2.942569933694e+00
2.942924572426e+00
2.942582360239e+00
2.942927610552e+00
2.942582516598e+00
2.942927757427e+00
2.942582565658e+00
2.942927783100e+00
2.942582601805e+00
2.942927803395e+00
2.942582636479e+00
2.942927822321e+00
2.942582670001e+00
2.942927840246e+00
2.942582702666e+00
2.942927857498e+00
2.942582734834e+00
2.942927874458e+00
2.942573391075e+00
2.942918842062e+00
2.942573422622e+00
2.942918862120e+00
2.942582601281e+00
2.942927700019e+00
2.942582860704e+00
2.942927941588e+00
2.942582902082e+00
2.942927968309e+00
2.942582939258e+00
2.942927991050e+00
2.942582977785e+00
2.942928015069e+00
2.942583017648e+00
2.942928040264e+00
2.942583058524e+00
2.942928066228e+00
2.942583099902e+00
2.942928092372e+00
2.942583141101e+00
2.942928117939e+00
2.942583181290e+00
2.942919103108e+00
2.942573852040e+00
2.942919124699e+00
2.942573889016e+00
2.942919145884e+00
2.942573922559e+00
2.942923410544e+00
</dep>
<dep tran.v(stage3l) time>
2.942746710553e+00
2.942746710543e+00
2.942746710542e+00
2.942746710539e+00
2.942746710533e+00
2.942746710513e+00
2.942746710451e+00
2.942746710228e+00
2.942746709657e+00
2.942746708004e+00
2.942746704954e+00
2.942746698562e+00
2.942746688326e+00
2.942746671036e+00
2.942746646453e+00
2.942746610535e+00
2.942746563731e+00
2.942746496792e+00
2.942745394402e+00
2.940287894105e+00
2.921704565025e+00
2.882168763237e+00
1.591617729366e-01
1.162257509030e-01
1.179676515791e-01
1.035971804182e-01
1.018984135077e-01
9.033507071048e-02
8.545191098352e-02
7.313262758105e-02
6.513908110085e-02
5.827729397024e-02
5.818915629623e-02
5.692286213655e-02
5.777263402044e-02
5.677973104701e-02
5.774037151340e-02
5.677745609677e-02
5.774037032752e-02
5.677969808708e-02
5.775718909461e-02
5.698508997183e-02
6.289463026370e-02
2.917608813218e+00
2.941585795549e+00
2.942043741571e+00
2.943254851808e+00
2.942313397873e+00
2.943397589906e+00
2.942320014401e+00
2.943339144022e+00
2.942224563217e+00
2.943258561108e+00
2.942224542239e+00
2.943343562776e+00
2.942318745671e+00
2.943335249209e+00
2.942309877263e+00
2.943336055708e+00
2.942310796997e+00
2.943258914323e+00
2.942225057237e+00
2.943258798972e+00
2.942225075452e+00
2.943258484461e+00
2.942225745774e+00
2.943257981412e+00
2.942226790827e+00
2.943258313128e+00
2.942226314595e+00
2.943257557404e+00
2.942226587877e+00
2.943257671106e+00
2.942226757293e+00
2.943257694561e+00
2.942226604470e+00
2.943257685929e+00
2.942226634114e+00
2.943257666129e+00
2.942226654900e+00
2.943257639456e+00
2.942226668815e+00
2.943257605663e+00
2.942226674708e+00
2.943257564083e+00
2.942226673150e+00
2.943257516460e+00
2.942226666531e+00
2.943257327346e+00
2.942226532568e+00
2.943257271912e+00
2.942304640529e+00
2.943345891734e+00
2.942357947858e+00
2.943327717416e+00
2.942307280154e+00
2.943334098373e+00
2.942312223193e+00
2.943333764515e+00
2.942311770754e+00
2.943333754196e+00
2.942311797494e+00
2.943333695111e+00
2.942311779909e+00
2.943333640550e+00
2.942311767696e+00
2.943333586694e+00
2.942311756111e+00
2.943333533696e+00
2.942311745251e+00
2.943333481174e+00
2.942311734685e+00
2.943256835504e+00
2.942226483709e+00
2.943256675070e+00
2.942226603214e+00
2.943340892619e+00
2.942319799298e+00
2.943332587684e+00
2.942310941920e+00
2.943333275878e+00
2.942311741703e+00
2.943333148715e+00
2.942311649955e+00
2.943333096433e+00
2.942311639102e+00
2.943333035655e+00
2.942311618060e+00
2.943332964478e+00
2.942311532335e+00
2.943332408587e+00
2.942308346625e+00
2.943309158472e+00
2.942166427244e+00
2.942350898646e+00
2.936294440023e+00
2.905674252695e+00
7.168936536420e-02
6.084376856177e-02
5.746080672375e-02
5.794464495563e-02
5.687300838039e-02
</dep>
