<Qucs Dataset 0.0.19>
<indep time 101>
  +0.00000000000000000000e+00
  +2.99999999999999988898e-02
  +5.99999999999999977796e-02
  +8.99999999999999966693e-02
  +1.19999999999999995559e-01
  +1.49999999999999994449e-01
  +1.79999999999999993339e-01
  +2.09999999999999992228e-01
  +2.39999999999999991118e-01
  +2.70000000000000017764e-01
  +2.99999999999999988898e-01
  +3.29999999999999960032e-01
  +3.59999999999999986677e-01
  +3.90000000000000013323e-01
  +4.19999999999999984457e-01
  +4.49999999999999955591e-01
  +4.79999999999999982236e-01
  +5.10000000000000008882e-01
  +5.40000000000000035527e-01
  +5.69999999999999951150e-01
  +5.99999999999999977796e-01
  +6.30000000000000004441e-01
  +6.59999999999999920064e-01
  +6.89999999999999946709e-01
  +7.19999999999999973355e-01
  +7.50000000000000000000e-01
  +7.80000000000000026645e-01
  +8.09999999999999942268e-01
  +8.39999999999999968914e-01
  +8.69999999999999995559e-01
  +8.99999999999999911182e-01
  +9.29999999999999937828e-01
  +9.59999999999999964473e-01
  +9.89999999999999991118e-01
  +1.02000000000000001776e+00
  +1.05000000000000004441e+00
  +1.08000000000000007105e+00
  +1.10999999999999987566e+00
  +1.13999999999999990230e+00
  +1.16999999999999992895e+00
  +1.19999999999999995559e+00
  +1.22999999999999998224e+00
  +1.26000000000000000888e+00
  +1.29000000000000003553e+00
  +1.31999999999999984013e+00
  +1.34999999999999986677e+00
  +1.37999999999999989342e+00
  +1.40999999999999992006e+00
  +1.43999999999999994671e+00
  +1.46999999999999997335e+00
  +1.50000000000000000000e+00
  +1.53000000000000002665e+00
  +1.56000000000000005329e+00
  +1.58999999999999985789e+00
  +1.61999999999999988454e+00
  +1.64999999999999991118e+00
  +1.67999999999999993783e+00
  +1.70999999999999996447e+00
  +1.73999999999999999112e+00
  +1.77000000000000001776e+00
  +1.79999999999999982236e+00
  +1.82999999999999984901e+00
  +1.85999999999999987566e+00
  +1.88999999999999990230e+00
  +1.91999999999999992895e+00
  +1.94999999999999995559e+00
  +1.97999999999999998224e+00
  +2.00999999999999978684e+00
  +2.04000000000000003553e+00
  +2.06999999999999984013e+00
  +2.10000000000000008882e+00
  +2.12999999999999989342e+00
  +2.16000000000000014211e+00
  +2.18999999999999994671e+00
  +2.21999999999999975131e+00
  +2.25000000000000000000e+00
  +2.27999999999999980460e+00
  +2.31000000000000005329e+00
  +2.33999999999999985789e+00
  +2.37000000000000010658e+00
  +2.39999999999999991118e+00
  +2.42999999999999971578e+00
  +2.45999999999999996447e+00
  +2.48999999999999976907e+00
  +2.52000000000000001776e+00
  +2.54999999999999982236e+00
  +2.58000000000000007105e+00
  +2.60999999999999987566e+00
  +2.63999999999999968026e+00
  +2.66999999999999992895e+00
  +2.69999999999999973355e+00
  +2.72999999999999998224e+00
  +2.75999999999999978684e+00
  +2.79000000000000003553e+00
  +2.81999999999999984013e+00
  +2.85000000000000008882e+00
  +2.87999999999999989342e+00
  +2.90999999999999969802e+00
  +2.93999999999999994671e+00
  +2.96999999999999975131e+00
  +3.00000000000000000000e+00
</indep>
<dep V2.It time>
  +1.60517995427898463312e-02
  +1.60516674332741304809e-02
  +1.60515570256120482240e-02
  +1.60514817961058160745e-02
  +1.60514504057037189766e-02
  +1.60514662042854500124e-02
  +1.60515274915242131537e-02
  +1.60516274535376160526e-02
  +1.60517540688977222718e-02
  +1.60518907649430872531e-02
  +1.60520180757757410794e-02
  +1.60521165444424199209e-02
  +1.60521702272674246514e-02
  +1.60521702464985101255e-02
  +1.60521165263092513431e-02
  +1.60520180959675962118e-02
  +1.60518907664486155940e-02
  +1.60517540894074481339e-02
  +1.60516274549321880105e-02
  +1.60515275114854229221e-02
  +1.60514661857144892709e-02
  +1.60514504057188769903e-02
  +1.60514818146606091931e-02
  +1.60515570057365233869e-02
  +1.60516674512087391402e-02
  +1.60517994389291068780e-02
  +1.60519352584114899374e-02
  +1.60520549930703720909e-02
  +1.60521400288951877899e-02
  +1.60521763878204576370e-02
  +1.60521580434167462914e-02
  +1.60520880115696817914e-02
  +1.60519779422952715842e-02
  +1.60518452502029750073e-02
  +1.60517098647278214085e-02
  +1.60515904954951563188e-02
  +1.60515023352853780647e-02
  +1.60514556930113905242e-02
  +1.60514556928426435634e-02
  +1.60515023344983513709e-02
  +1.60515904753081896372e-02
  +1.60517098632444871198e-02
  +1.60518452487043647436e-02
  +1.60519779409905860579e-02
  +1.60520880106450186675e-02
  +1.60521580240492005298e-02
  +1.60521763879615878001e-02
  +1.60521400106411818443e-02
  +1.60520549942300555513e-02
  +1.60519352409478135990e-02
  +1.60517994405404498814e-02
  +1.60516674337800452355e-02
  +1.60515570069419896693e-02
  +1.60514817963028216807e-02
  +1.60514504058546711440e-02
  +1.60514662044249668826e-02
  +1.60515275106134433503e-02
  +1.60516274726231790437e-02
  +1.60517540879812382892e-02
  +1.60518907840274185905e-02
  +1.60520180948601765003e-02
  +1.60521165445750985112e-02
  +1.60521702463473463218e-02
  +1.60521702466299015510e-02
  +1.60521165453882154461e-02
  +1.60520180960987829399e-02
  +1.60518907855284401198e-02
  +1.60517540895381630173e-02
  +1.60516274740124288700e-02
  +1.60515275116135530675e-02
  +1.60514662047897896380e-02
  +1.60514503869046663842e-02
  +1.60514818147923093994e-02
  +1.60515570058733826608e-02
  +1.60516674323970334748e-02
  +1.60517994390647275593e-02
  +1.60519352585413339896e-02
  +1.60520550121445552960e-02
  +1.60521400100838394776e-02
  +1.60521764068946547199e-02
  +1.60521580246053355290e-02
  +1.60520880306426957929e-02
  +1.60519779234831669323e-02
  +1.60518452692762457479e-02
  +1.60517098459148702116e-02
  +1.60515904766812683713e-02
  +1.60515023164705811221e-02
  +1.60514556741931727069e-02
  +1.60514556740266739476e-02
  +1.60515023156824927775e-02
  +1.60515904943772935720e-02
  +1.60517098633689014875e-02
  +1.60518452488362939334e-02
  +1.60519779411146049086e-02
  +1.60520880107757647759e-02
  +1.60521580431149703261e-02
  +1.60521763880922090084e-02
  +1.60521400297064867346e-02
  +1.60520550132953396250e-02
  +1.60519352410778207152e-02
  +1.60517994406700649501e-02
</dep>
<dep V1.It time>
  +1.57121587616646993506e-04
  +1.51433141085909880397e-04
  +1.46587070625932590134e-04
  +1.43237903286116231372e-04
  +1.41827168744440616993e-04
  +1.42537907846485684647e-04
  +1.45278127413314505191e-04
  +1.49688942574735094765e-04
  +1.55179515258899430180e-04
  +1.60993925239662211265e-04
  +1.66309965182274445677e-04
  +1.70358876608079701839e-04
  +1.72545520318067896644e-04
  +1.72545367126278998381e-04
  +1.70358426485652333536e-04
  +1.66309293139105907966e-04
  +1.60993116999647337909e-04
  +1.55178688516753062170e-04
  +1.49688209563114671668e-04
  +1.45277596940704710254e-04
  +1.42537648326492651140e-04
  +1.41827224024062751142e-04
  +1.43238260295653371638e-04
  +1.46587675976677408833e-04
  +1.51433918305982550753e-04
  +1.57122001971416103876e-04
  +1.62861580797765334843e-04
  +1.67834431347708127767e-04
  +1.71317005668816747712e-04
  +1.72795363873016734422e-04
  +1.72049713198739830967e-04
  +1.69191020142723901184e-04
  +1.64642523918287226464e-04
  +1.59069631057201467048e-04
  +1.53272771815836833563e-04
  +1.48064664502929404198e-04
  +1.44155698161479832193e-04
  +1.42065128711596830443e-04
  +1.42065285106370237187e-04
  +1.44156145202787314358e-04
  +1.48065331956549853546e-04
  +1.53273580921077891889e-04
  +1.59070457115599665212e-04
  +1.64643255804106862332e-04
  +1.69191551591351871907e-04
  +1.72049965592859812041e-04
  +1.72795310488590270594e-04
  +1.71316644867085943324e-04
  +1.67833822203680184393e-04
  +1.62860799746217000403e-04
  +1.57121167116476909012e-04
  +1.51433137752790292771e-04
  +1.46587067731037600177e-04
  +1.43237900585185118493e-04
  +1.41827171475267845837e-04
  +1.42537910627652176414e-04
  +1.45278128875302858921e-04
  +1.49688944050517264844e-04
  +1.55179516518340522178e-04
  +1.60993928566827116614e-04
  +1.66309968471593946047e-04
  +1.70358876607801007670e-04
  +1.72545523351892688508e-04
  +1.72545366926345883612e-04
  +1.70358429309270110845e-04
  +1.66309293143735993344e-04
  +1.60993120082276731627e-04
  +1.55178688908906467188e-04
  +1.49688213100048086003e-04
  +1.45277597309814753349e-04
  +1.42537653163116726559e-04
  +1.41827219178726135485e-04
  +1.43238260596890461382e-04
  +1.46587675711729135009e-04
  +1.51433913372791108601e-04
  +1.57122001427590973549e-04
  +1.62861582346706973857e-04
  +1.67834436577899705993e-04
  +1.71317000266682007738e-04
  +1.72795369319435224240e-04
  +1.72049707703860594015e-04
  +1.69191025504410690180e-04
  +1.64642518353932747980e-04
  +1.59069636383821173342e-04
  +1.53272766026897247623e-04
  +1.48064658594493364510e-04
  +1.44155692222878333616e-04
  +1.42065122859654662836e-04
  +1.42065279219870995581e-04
  +1.44156139255310292852e-04
  +1.48065337635417684174e-04
  +1.53273578497978247778e-04
  +1.59070459558393543630e-04
  +1.64643253457866120494e-04
  +1.69191553986985856062e-04
  +1.72049969311745878106e-04
  +1.72795313343203002770e-04
  +1.71316648646819928974e-04
  +1.67833825975871538160e-04
  +1.62860802679921847381e-04
  +1.57121169970397865992e-04
</dep>
<dep sensor.Vt time>
  +0.00000000000000000000e+00
  +3.68124552684677940062e-03
  +6.84547105928688670584e-03
  +9.04827052466019611521e-03
  +9.98026728428271642235e-03
  +9.51056516295153628326e-03
  +7.70513242775789242850e-03
  +4.81753674101715635703e-03
  +1.25333233564304548889e-03
  -2.48689887164855018623e-03
  -5.87785252292473067715e-03
  -8.44327925502014881021e-03
  -9.82287250728688769719e-03
  -9.82287250728688769719e-03
  -8.44327925502015574910e-03
  -5.87785252292474021812e-03
  -2.48689887164855365567e-03
  +1.25333233564304180260e-03
  +4.81753674101715635703e-03
  +7.70513242775788722433e-03
  +9.51056516295153628326e-03
  +9.98026728428271642235e-03
  +9.04827052466019958465e-03
  +6.84547105928689711418e-03
  +3.68124552684677983430e-03
  +3.67394039744205919011e-18
  -3.68124552684677246173e-03
  -6.84547105928687889959e-03
  -9.04827052466018917631e-03
  -9.98026728428271642235e-03
  -9.51056516295154322216e-03
  -7.70513242775789676531e-03
  -4.81753674101716329592e-03
  -1.25333233564304006788e-03
  +2.48689887164854671678e-03
  +5.87785252292472720770e-03
  +8.44327925502015574910e-03
  +9.82287250728688596246e-03
  +9.82287250728688943191e-03
  +8.44327925502016268799e-03
  +5.87785252292473588132e-03
  +2.48689887164855712512e-03
  -1.25333233564302922586e-03
  -4.81753674101715375494e-03
  -7.70513242775787941807e-03
  -9.51056516295153454854e-03
  -9.98026728428271815707e-03
  -9.04827052466020131938e-03
  -6.84547105928688670584e-03
  -3.68124552684679978362e-03
  -7.34788079488411838023e-18
  +3.68124552684678590583e-03
  +6.84547105928687629750e-03
  +9.04827052466018050270e-03
  +9.98026728428271468763e-03
  +9.51056516295153801799e-03
  +7.70513242775791151046e-03
  +4.81753674101716676537e-03
  +1.25333233564304397101e-03
  -2.48689887164852590010e-03
  -5.87785252292469598268e-03
  -8.44327925502013493242e-03
  -9.82287250728688422774e-03
  -9.82287250728689463608e-03
  -8.44327925502016268799e-03
  -5.87785252292473935076e-03
  -2.48689887164854368101e-03
  +1.25333233564299041142e-03
  +4.81753674101715028549e-03
  +7.70513242775787681599e-03
  +9.51056516295153281382e-03
  +9.98026728428271815707e-03
  +9.04827052466018744159e-03
  +6.84547105928688930793e-03
  +3.68124552684680325307e-03
  +1.10218211923261791111e-17
  -3.68124552684674947664e-03
  -6.84547105928687282805e-03
  -9.04827052466017876797e-03
  -9.98026728428271642235e-03
  -9.51056516295153975271e-03
  -7.70513242775791411254e-03
  -4.81753674101716936745e-03
  -1.25333233564308278545e-03
  +2.48689887164852199697e-03
  +5.87785252292469251323e-03
  +8.44327925502015227965e-03
  +9.82287250728688249302e-03
  +9.82287250728689463608e-03
  +8.44327925502014707548e-03
  +5.87785252292474282021e-03
  +2.48689887164858141125e-03
  -1.25333233564298672513e-03
  -4.81753674101714681605e-03
  -7.70513242775787508126e-03
  -9.51056516295154148743e-03
  -9.98026728428271642235e-03
  -9.04827052466020478882e-03
  -6.84547105928691879823e-03
  -3.68124552684683924858e-03
  -1.46957615897682367605e-17
</dep>
<dep _net4.Vt time>
  +4.78263909288291155786e-01
  +4.78263909288380362206e-01
  +4.78263909288415944854e-01
  +4.78263909288249244867e-01
  +4.78263909288361821481e-01
  +4.78263909288426658506e-01
  +4.78263909288579147638e-01
  +4.78263909288490218774e-01
  +4.78263909288207889059e-01
  +4.78263909288459354574e-01
  +4.78263909288457855773e-01
  +4.78263909288532962361e-01
  +4.78263909288554001087e-01
  +4.78263909288494604155e-01
  +4.78263909288605792991e-01
  +4.78263909288379085449e-01
  +4.78263909288458188840e-01
  +4.78263909288334454484e-01
  +4.78263909288409783116e-01
  +4.78263909288386246388e-01
  +4.78263909288439648115e-01
  +4.78263909288241029216e-01
  +4.78263909288236810369e-01
  +4.78263909288392075059e-01
  +4.78263909288469513115e-01
  +4.78263909288553668020e-01
  +4.78263909288567656830e-01
  +4.78263909288587973911e-01
  +4.78263909288530797426e-01
  +4.78263909288483002324e-01
  +4.78263909288546285037e-01
  +4.78263909288472732761e-01
  +4.78263909288303701306e-01
  +4.78263909288399735598e-01
  +4.78263909288303146194e-01
  +4.78263909288400346220e-01
  +4.78263909288396849018e-01
  +4.78263909288294097877e-01
  +4.78263909288382915719e-01
  +4.78263909288350164140e-01
  +4.78263909288270672171e-01
  +4.78263909288379696072e-01
  +4.78263909288330790748e-01
  +4.78263909288380639762e-01
  +4.78263909288547506282e-01
  +4.78263909288560606914e-01
  +4.78263909288487221172e-01
  +4.78263909288547561793e-01
  +4.78263909288362321082e-01
  +4.78263909288467237158e-01
  +4.78263909288512700790e-01
  +4.78263909288467348180e-01
  +4.78263909288353605831e-01
  +4.78263909288391464436e-01
  +4.78263909288228539207e-01
  +4.78263909288411503962e-01
  +4.78263909288428101796e-01
  +4.78263909288463073821e-01
  +4.78263909288503152872e-01
  +4.78263909288509536655e-01
  +4.78263909288482280679e-01
  +4.78263909288603406011e-01
  +4.78263909288549837751e-01
  +4.78263909288527744312e-01
  +4.78263909288507704787e-01
  +4.78263909288544730725e-01
  +4.78263909288321242830e-01
  +4.78263909288428101796e-01
  +4.78263909288291266808e-01
  +4.78263909288315358648e-01
  +4.78263909288405175690e-01
  +4.78263909288400568265e-01
  +4.78263909288433430866e-01
  +4.78263909288245525619e-01
  +4.78263909288345723247e-01
  +4.78263909288364930106e-01
  +4.78263909288373978423e-01
  +4.78263909288540567388e-01
  +4.78263909288616118065e-01
  +4.78263909288617894422e-01
  +4.78263909288515531859e-01
  +4.78263909288467015113e-01
  +4.78263909288549171617e-01
  +4.78263909288446475987e-01
  +4.78263909288544175613e-01
  +4.78263909288391353414e-01
  +4.78263909288396515951e-01
  +4.78263909288361099836e-01
  +4.78263909288299204903e-01
  +4.78263909288365374195e-01
  +4.78263909288425992372e-01
  +4.78263909288458188840e-01
  +4.78263909288361044325e-01
  +4.78263909288489275085e-01
  +4.78263909288266453324e-01
  +4.78263909288437927270e-01
  +4.78263909288507704787e-01
  +4.78263909288344502002e-01
  +4.78263909288484723170e-01
  +4.78263909288407618181e-01
  +4.78263909288509592166e-01
</dep>
<dep stage2l.Vt time>
  +1.49998607994693045065e+00
  +1.49998607994788124564e+00
  +1.49998607994809640687e+00
  +1.49998607994729948878e+00
  +1.49998607994765964513e+00
  +1.49998607994766675056e+00
  +1.49998607994786814501e+00
  +1.49998607994783461628e+00
  +1.49998607994778687669e+00
  +1.49998607994819344036e+00
  +1.49998607994785948527e+00
  +1.49998607994813548672e+00
  +1.49998607994821742118e+00
  +1.49998607994751553818e+00
  +1.49998607994820498668e+00
  +1.49998607994737898075e+00
  +1.49998607994798893728e+00
  +1.49998607994787369613e+00
  +1.49998607994788435427e+00
  +1.49998607994758170747e+00
  +1.49998607994798627274e+00
  +1.49998607994714516778e+00
  +1.49998607994765476015e+00
  +1.49998607994776755881e+00
  +1.49998607994780175368e+00
  +1.49998607994796051557e+00
  +1.49998607994804689092e+00
  +1.49998607994822519274e+00
  +1.49998607994812926947e+00
  +1.49998607994816990363e+00
  +1.49998607994818833333e+00
  +1.49998607994811572475e+00
  +1.49998607994792987341e+00
  +1.49998607994789834308e+00
  +1.49998607994747668037e+00
  +1.49998607994777777286e+00
  +1.49998607994752308770e+00
  +1.49998607994737231941e+00
  +1.49998607994775023933e+00
  +1.49998607994766230966e+00
  +1.49998607994770738472e+00
  +1.49998607994751775863e+00
  +1.49998607994787014341e+00
  +1.49998607994759858286e+00
  +1.49998607994833443868e+00
  +1.49998607994835864154e+00
  +1.49998607994807553467e+00
  +1.49998607994846877567e+00
  +1.49998607994785659869e+00
  +1.49998607994796739895e+00
  +1.49998607994819366240e+00
  +1.49998607994799937337e+00
  +1.49998607994762767071e+00
  +1.49998607994797872323e+00
  +1.49998607994750798866e+00
  +1.49998607994766985918e+00
  +1.49998607994772203966e+00
  +1.49998607994780974728e+00
  +1.49998607994787591657e+00
  +1.49998607994845922775e+00
  +1.49998607994810551070e+00
  +1.49998607994831334445e+00
  +1.49998607994827559686e+00
  +1.49998607994809374233e+00
  +1.49998607994807175992e+00
  +1.49998607994841304247e+00
  +1.49998607994744870275e+00
  +1.49998607994779820096e+00
  +1.49998607994733301751e+00
  +1.49998607994750021710e+00
  +1.49998607994771582241e+00
  +1.49998607994775245977e+00
  +1.49998607994781418817e+00
  +1.49998607994710853042e+00
  +1.49998607994767563234e+00
  +1.49998607994782906516e+00
  +1.49998607994754351580e+00
  +1.49998607994814037170e+00
  +1.49998607994827737322e+00
  +1.49998607994842569902e+00
  +1.49998607994831356649e+00
  +1.49998607994838328850e+00
  +1.49998607994819410649e+00
  +1.49998607994764876494e+00
  +1.49998607994830313039e+00
  +1.49998607994794452836e+00
  +1.49998607994785881914e+00
  +1.49998607994733101911e+00
  +1.49998607994761390394e+00
  +1.49998607994767052531e+00
  +1.49998607994775534635e+00
  +1.49998607994785126962e+00
  +1.49998607994791921527e+00
  +1.49998607994786348208e+00
  +1.49998607994727040094e+00
  +1.49998607994780197572e+00
  +1.49998607994833910162e+00
  +1.49998607994804156185e+00
  +1.49998607994744648231e+00
  +1.49998607994759636242e+00
  +1.49998607994794541654e+00
</dep>
<dep _net3.Vt time>
  +2.52172717600686002726e+00
  +2.52172717601454188241e+00
  +2.52172717601467510917e+00
  +2.52172717601435980583e+00
  +2.52172717601451790159e+00
  +2.52172717601452633929e+00
  +2.52172717601455564918e+00
  +2.52172717601454099423e+00
  +2.52172717601451656932e+00
  +2.52172717601465290471e+00
  +2.52172717601454809966e+00
  +2.52172717601469598137e+00
  +2.52172717601465690151e+00
  +2.52172717601447748947e+00
  +2.52172717601464801973e+00
  +2.52172717601441709334e+00
  +2.52172717601456719549e+00
  +2.52172717601459739356e+00
  +2.52172717601454632330e+00
  +2.52172717601450724345e+00
  +2.52172717601458629133e+00
  +2.52172717601436335855e+00
  +2.52172717601450102620e+00
  +2.52172717601452545111e+00
  +2.52172717601455431691e+00
  +2.52172717601456763958e+00
  +2.52172717601464135839e+00
  +2.52172717601466489512e+00
  +2.52172717601468487914e+00
  +2.52172717601464890791e+00
  +2.52172717601470219861e+00
  +2.52172717601462625936e+00
  +2.52172717601460938397e+00
  +2.52172717601454943193e+00
  +2.52172717601447171631e+00
  +2.52172717601456009007e+00
  +2.52172717601448059810e+00
  +2.52172717601443530100e+00
  +2.52172717601455254055e+00
  +2.52172717601451212843e+00
  +2.52172717601446727542e+00
  +2.52172717601447349267e+00
  +2.52172717601456763958e+00
  +2.52172717601450990799e+00
  +2.52172717601469509319e+00
  +2.52172717601472173854e+00
  +2.52172717601461737758e+00
  +2.52172717601475149252e+00
  +2.52172717601454143832e+00
  +2.52172717601459117631e+00
  +2.52172717601465024018e+00
  +2.52172717601458051817e+00
  +2.52172717601446905178e+00
  +2.52172717601458096226e+00
